
T2384 000:819 SEGGER J-Link V4.15n (beta) Log File (0001ms, 0816ms total)
T2384 000:819 DLL Compiled: Jun 18 2010 19:55:09 (0001ms, 0816ms total)
T2384 000:819 Logging started @ 2012-10-10 23:25 (0001ms, 0816ms total)
T2384 000:820 JLINK_SetWarnOutHandler(...) (0000ms, 0817ms total)
T2384 000:820 JLINK_OpenEx(...)
Firmware: J-Link ARM V8 compiled Feb  8 2012 14:30:39
Hardware: V8.00
S/N: 20100214
Feature(s): RDI,FlashDL,FlashBP,JFlash,GDBFull  returns O.K. (0111ms, 0817ms total)
T2384 000:931 JLINK_SetErrorOutHandler(...) (0000ms, 0928ms total)
T2384 000:931 JLINK_ExecCommand("ProjectFile = "E:\嵌入式系统\ARM\练习\第一个练习――点亮一个led\ver3.0\Project\JLinkSettings.ini"", ...)  returns 0x00 (0001ms, 0928ms total)
T2384 000:932 JLINK_ExecCommand("DisableConnectionTimeout", ...)  returns 0x00 (0000ms, 0929ms total)
T2384 000:934 JLINK_TIF_Select(JLINKARM_TIF_JTAG)  returns 0x00 (0000ms, 0929ms total)
T2384 000:934 JLINK_SetSpeed(2000) (0001ms, 0929ms total)
T2384 000:935 JLINK_GetHardwareVersion()  returns 0x13880 (0000ms, 0930ms total)
T2384 000:935 JLINK_GetDLLVersion()  returns 41514 (0000ms, 0930ms total)
T2384 000:935 JLINK_GetFirmwareString(...) (0000ms, 0930ms total)
T2384 000:935 JLINK_GetDLLVersion()  returns 41514 (0000ms, 0930ms total)
T2384 000:935 JLINK_GetCompileDateTime() (0000ms, 0930ms total)
T2384 000:935 JLINK_GetFirmwareString(...) (0000ms, 0930ms total)
T2384 000:935 JLINK_GetHardwareVersion()  returns 0x13880 (0000ms, 0930ms total)
T2384 000:936 JLINK_Reset() >0x2F8 JTAG>TotalIRLen = 9, IRPrint = 0x0011 >0x30 JTAG> >0x210 JTAG> >0x118 JTAG> >0xD8 JTAG> >0x198 JTAG> >0x38 JTAG> >0x118 JTAG> >0xD8 JTAG> >0x2F0 JTAG> >0x2F0 JTAG> >0x198 JTAG> >0x198 JTAG>Found Cortex-M3 r1p1, Little endian. >0xD8 JTAG> >0x240 JTAG> >0x198 JTAG> >0x198 JTAG>TPIU fitted. >0x198 JTAG> >0x198 JTAG>  FPUnit: 6 code (BP) slots and 2 literal slots >0x198 JTAG> >0x250 JTAG> >0x240 JTAG> >0x280 JTAG> >0x198 JTAG> >0x198 JTAG> >0x240 JTAG> >0x240 JTAG>
 >0x198 JTAG> >0x198 JTAG> >0x17A8 JTAG> >0x240 JTAG> >0x198 JTAG> >0x17A8 JTAG> >0x198 JTAG> -- CPU_WriteMem(4 bytes @ 0xE000EDFC) -- CPU_WriteMem(4 bytes @ 0xE0001028) -- CPU_WriteMem(4 bytes @ 0xE0001038) -- CPU_WriteMem(4 bytes @ 0xE0001048) -- CPU_WriteMem(4 bytes @ 0xE0001058) (0067ms, 0930ms total)
T2384 001:003 JLINK_GetIdData(...) ScanLen=9 NumDevices=2 aId[0]=0x3BA00477 aIrRead[0]=0 aScanLen[0]=0 aScanRead[0]=0 (0001ms, 0997ms total)
T2384 001:004 JLINK_JTAG_GetDeviceID(DeviceIndex = 0)  returns 0x3BA00477 (0000ms, 0998ms total)
T2384 001:004 JLINK_JTAG_GetDeviceInfo(DeviceIndex = 0)  returns 0x00 (0000ms, 0998ms total)
T2384 001:004 JLINK_JTAG_GetDeviceID(DeviceIndex = 1)  returns 0x16410041 (0000ms, 0998ms total)
T2384 001:004 JLINK_JTAG_GetDeviceInfo(DeviceIndex = 1)  returns 0x00 (0000ms, 0998ms total)
T2384 001:004 JLINK_GetDebugInfo(0x100) -- Value=0xE00FF003  returns 0x00 (0000ms, 0998ms total)
T2384 001:005 JLINK_ReadMem (0xE00FF000, 0x0018 Bytes, ...) -- CPU_ReadMem(24 bytes @ 0xE00FF000) -- Data:  03 F0 F0 FF 03 20 F0 FF 03 30 F0 FF 03 10 F0 FF ...  returns 0x00 (0001ms, 0998ms total)
T2384 001:006 JLINK_ReadMemU32(0xE000ED00, 0x0001 Items, ...) -- CPU_ReadMem(4 bytes @ 0xE000ED00) -- Data:  31 C2 1F 41  returns 0x01 (0001ms, 0999ms total)
T2384 001:008 JLINK_Halt()  returns 0x00 (0000ms, 1000ms total)
T2384 001:008 JLINK_IsHalted()  returns TRUE (0000ms, 1000ms total)
T2384 001:008 JLINK_ReadMemU32(0xE000EDF0, 0x0001 Items, ...) -- CPU_ReadMem(4 bytes @ 0xE000EDF0) -- Data:  03 00 03 00  returns 0x01 (0001ms, 1000ms total)
T2384 001:009 JLINK_WriteU32(0xE000EDF0, 0xA05F0003) -- CPU_WriteMem(4 bytes @ 0xE000EDF0)  returns 0x00 (0001ms, 1001ms total)
T2384 001:010 JLINK_WriteU32(0xE000EDFC, 0x01000000) -- CPU_WriteMem(4 bytes @ 0xE000EDFC)  returns 0x00 (0001ms, 1002ms total)
T2384 001:011 JLINK_ReadMemU32(0xE0002000, 0x0001 Items, ...) -- CPU_ReadMem(4 bytes @ 0xE0002000) -- Data:  60 02 00 00  returns 0x01 (0001ms, 1003ms total)
T2384 001:012 JLINK_ReadMemU32(0xE0001000, 0x0001 Items, ...) -- CPU_ReadMem(4 bytes @ 0xE0001000) -- Data:  01 00 00 40  returns 0x01 (0001ms, 1004ms total)
T2384 001:014 JLINK_ExecCommand("Device = STM32F103C8", ...)
                JLINK_ExecCommand("map ram 0x20000000 - 0x20004FFF", ...)  returns 0x00 (0000ms, 0000ms total)
                JLINK_AddMirrorAreaEx(Addr = 0x00000000, Size = 0x00000000) (0000ms, 0000ms total)
                returns 0x00 (0000ms, 1005ms total)
T2384 001:014 JLINK_GetHWStatus(...)  returns 0x00 (0001ms, 1005ms total)
T2384 001:015 JLINK_GetNumBPUnits(Type = 0xFFFFFF00) >0x2F8 JTAG>TotalIRLen = 9, IRPrint = 0x0011 >0x30 JTAG> >0x210 JTAG> >0x118 JTAG> >0xD8 JTAG> >0x198 JTAG> >0x38 JTAG> >0x118 JTAG> >0xD8 JTAG> >0x2F0 JTAG> >0x2F0 JTAG> >0x198 JTAG> >0x198 JTAG>Found Cortex-M3 r1p1, Little endian. >0xD8 JTAG> >0x240 JTAG> >0x198 JTAG> >0x198 JTAG>TPIU fitted. >0x198 JTAG> >0x198 JTAG>  FPUnit: 6 code (BP) slots and 2 literal slots >0x198 JTAG>  returns 0x06 (0025ms, 1006ms total)
T2384 001:040 JLINK_GetNumBPUnits(Type = 0xF0)  returns 0x800 (0001ms, 1031ms total)
T2384 001:041 JLINK_GetNumWPUnits()  returns 0x04 (0000ms, 1032ms total)
T2384 001:041 JLINK_GetSpeed()  returns 0x7D0 (0000ms, 1032ms total)
T2384 001:041 JLINK_ReadMemU32(0xE000E004, 0x0001 Items, ...) -- CPU_ReadMem(4 bytes @ 0xE000E004) -- Data:  01 00 00 00  returns 0x01 (0001ms, 1032ms total)
T2384 001:042 JLINK_WriteMem(0xE0001000, 0x001C Bytes, ...) -- Data:  01 00 00 00 00 00 00 00 00 00 00 00 00 00 00 00 ... -- CPU_WriteMem(28 bytes @ 0xE0001000)  returns 0x1C (0001ms, 1033ms total)
T2384 001:043 JLINK_ReadMem (0xE0001000, 0x001C Bytes, ...) -- CPU_ReadMem(28 bytes @ 0xE0001000) -- Data:  01 00 00 40 00 00 00 00 00 00 00 00 00 00 00 00 ...  returns 0x00 (0002ms, 1034ms total)
T2384 001:045 JLINK_ReadReg(R15)  returns 0x08000170 (0000ms, 1036ms total)
T2384 001:045 JLINK_ReadReg(XPSR)  returns 0x01000000 (0000ms, 1036ms total)
T2384 001:416 JLINK_SetResetType(JLINKARM_RESET_TYPE_NORMAL)  returns JLINKARM_RESET_TYPE_NORMAL (0000ms, 1036ms total)
T2384 001:416 JLINK_Reset() >0x308 JTAG>TotalIRLen = 9, IRPrint = 0x0011 >0x30 JTAG> >0x210 JTAG> >0x118 JTAG> >0xD8 JTAG> >0x198 JTAG> >0x38 JTAG> >0x118 JTAG> >0xD8 JTAG> >0x2F0 JTAG> >0x2F0 JTAG> >0x198 JTAG> >0x198 JTAG>Found Cortex-M3 r1p1, Little endian. >0xD8 JTAG> >0x240 JTAG> >0x198 JTAG> >0x198 JTAG>TPIU fitted. >0x198 JTAG> >0x198 JTAG>  FPUnit: 6 code (BP) slots and 2 literal slots >0x198 JTAG> >0x250 JTAG> >0x240 JTAG> >0x280 JTAG> >0x198 JTAG> >0x198 JTAG> >0x240 JTAG> >0x240 JTAG>
 >0x198 JTAG> >0x198 JTAG> >0x240 JTAG> >0x198 JTAG> >0x17A8 JTAG> >0x198 JTAG> -- CPU_WriteMem(4 bytes @ 0xE000EDFC) -- CPU_WriteMem(4 bytes @ 0xE0001028) -- CPU_WriteMem(4 bytes @ 0xE0001038) -- CPU_WriteMem(4 bytes @ 0xE0001048) -- CPU_WriteMem(4 bytes @ 0xE0001058) (0063ms, 1036ms total)
T2384 001:479 JLINK_ReadReg(R15)  returns 0x08000170 (0000ms, 1099ms total)
T2384 001:479 JLINK_ReadReg(XPSR)  returns 0x01000000 (0000ms, 1099ms total)
T2384 001:479 JLINK_ReadReg(R0)  returns 0x0008A9D9 (0000ms, 1099ms total)
T2384 001:479 JLINK_ReadReg(R1)  returns 0x0008A9DA (0000ms, 1099ms total)
T2384 001:479 JLINK_ReadReg(R2)  returns 0x40010C00 (0000ms, 1099ms total)
T2384 001:479 JLINK_ReadReg(R3)  returns 0x10030020 (0000ms, 1099ms total)
T2384 001:479 JLINK_ReadReg(R4)  returns 0x00000000 (0000ms, 1099ms total)
T2384 001:479 JLINK_ReadReg(R5)  returns 0x20000000 (0000ms, 1099ms total)
T2384 001:479 JLINK_ReadReg(R6)  returns 0x00000000 (0000ms, 1099ms total)
T2384 001:479 JLINK_ReadReg(R7)  returns 0x00000000 (0000ms, 1099ms total)
T2384 001:479 JLINK_ReadReg(R8)  returns 0x00000000 (0001ms, 1099ms total)
T2384 001:480 JLINK_ReadReg(R9)  returns 0x20000160 (0000ms, 1100ms total)
T2384 001:480 JLINK_ReadReg(R10)  returns 0x08000544 (0000ms, 1100ms total)
T2384 001:480 JLINK_ReadReg(R11)  returns 0x00000000 (0000ms, 1100ms total)
T2384 001:480 JLINK_ReadReg(R12)  returns 0x00000020 (0000ms, 1100ms total)
T2384 001:480 JLINK_ReadReg(R13)  returns 0x20000660 (0000ms, 1100ms total)
T2384 001:480 JLINK_ReadReg(R14)  returns 0xFFFFFFFF (0000ms, 1100ms total)
T2384 001:480 JLINK_ReadReg(R15)  returns 0x08000170 (0000ms, 1100ms total)
T2384 001:480 JLINK_ReadReg(XPSR)  returns 0x01000000 (0000ms, 1100ms total)
T2384 001:480 JLINK_ReadReg(MSP)  returns 0x20000660 (0000ms, 1100ms total)
T2384 001:480 JLINK_ReadReg(PSP)  returns 0x20000800 (0000ms, 1100ms total)
T2384 001:480 JLINK_ReadReg(CFBP)  returns 0x00000000 (0000ms, 1100ms total)
T2384 001:480 JLINK_ReadMemU32(0xE0001004, 0x0001 Items, ...) -- CPU_ReadMem(4 bytes @ 0xE0001004) -- Data:  00 00 00 00  returns 0x01 (0001ms, 1100ms total)
T2384 001:482 JLINK_ReadMem (0x08000170, 0x003C Bytes, ...) -- CPU_ReadMem(128 bytes @ 0x08000140) -- Updating C cache (128 bytes @ 0x08000140) -- Read from C cache (60 bytes @ 0x08000170) -- Data:  09 48 80 47 09 48 00 47 FE E7 FE E7 FE E7 FE E7 ...  returns 0x00 (0002ms, 1101ms total)
T1150 017:825 JLINK_Step() -- Read from C cache (2 bytes @ 0x08000170) -- Not simulated  returns 0x00 (0008ms, 1103ms total)
T1150 017:833 JLINK_ReadReg(R15)  returns 0x08000172 (0001ms, 1111ms total)
T1150 017:834 JLINK_ReadReg(XPSR)  returns 0x01000000 (0000ms, 1112ms total)
T1150 017:834 JLINK_ReadReg(R0)  returns 0x08000485 (0000ms, 1112ms total)
T1150 017:834 JLINK_ReadReg(R1)  returns 0x0008A9DA (0000ms, 1112ms total)
T1150 017:834 JLINK_ReadReg(R2)  returns 0x40010C00 (0000ms, 1112ms total)
T1150 017:834 JLINK_ReadReg(R3)  returns 0x10030020 (0000ms, 1112ms total)
T1150 017:834 JLINK_ReadReg(R4)  returns 0x00000000 (0000ms, 1112ms total)
T1150 017:834 JLINK_ReadReg(R5)  returns 0x20000000 (0000ms, 1112ms total)
T1150 017:834 JLINK_ReadReg(R6)  returns 0x00000000 (0000ms, 1112ms total)
T1150 017:834 JLINK_ReadReg(R7)  returns 0x00000000 (0000ms, 1112ms total)
T1150 017:834 JLINK_ReadReg(R8)  returns 0x00000000 (0000ms, 1112ms total)
T1150 017:834 JLINK_ReadReg(R9)  returns 0x20000160 (0000ms, 1112ms total)
T1150 017:834 JLINK_ReadReg(R10)  returns 0x08000544 (0000ms, 1112ms total)
T1150 017:834 JLINK_ReadReg(R11)  returns 0x00000000 (0000ms, 1112ms total)
T1150 017:834 JLINK_ReadReg(R12)  returns 0x00000020 (0000ms, 1112ms total)
T1150 017:834 JLINK_ReadReg(R13)  returns 0x20000660 (0000ms, 1112ms total)
T1150 017:834 JLINK_ReadReg(R14)  returns 0xFFFFFFFF (0000ms, 1112ms total)
T1150 017:834 JLINK_ReadReg(R15)  returns 0x08000172 (0001ms, 1112ms total)
T1150 017:835 JLINK_ReadReg(XPSR)  returns 0x01000000 (0000ms, 1113ms total)
T1150 017:835 JLINK_ReadReg(MSP)  returns 0x20000660 (0000ms, 1113ms total)
T1150 017:835 JLINK_ReadReg(PSP)  returns 0x20000800 (0000ms, 1113ms total)
T1150 017:835 JLINK_ReadReg(CFBP)  returns 0x00000000 (0000ms, 1113ms total)
T2384 017:835 JLINK_ReadMemU32(0xE0001004, 0x0001 Items, ...) -- CPU_ReadMem(4 bytes @ 0xE0001004) -- Data:  02 00 00 00  returns 0x01 (0001ms, 1113ms total)
T2384 017:841 JLINK_ReadMem (0x08000170, 0x003C Bytes, ...) -- CPU_ReadMem(128 bytes @ 0x08000140) -- Updating C cache (128 bytes @ 0x08000140) -- Read from C cache (60 bytes @ 0x08000170) -- Data:  09 48 80 47 09 48 00 47 FE E7 FE E7 FE E7 FE E7 ...  returns 0x00 (0003ms, 1114ms total)
T1150 019:456 JLINK_Step() -- Read from C cache (2 bytes @ 0x08000172) -- Not simulated  returns 0x00 (0009ms, 1117ms total)
T1150 019:465 JLINK_ReadReg(R15)  returns 0x08000484 (0000ms, 1126ms total)
T1150 019:465 JLINK_ReadReg(XPSR)  returns 0x01000000 (0000ms, 1126ms total)
T1150 019:465 JLINK_ReadReg(R0)  returns 0x08000485 (0000ms, 1126ms total)
T1150 019:465 JLINK_ReadReg(R1)  returns 0x0008A9DA (0000ms, 1126ms total)
T1150 019:465 JLINK_ReadReg(R2)  returns 0x40010C00 (0001ms, 1126ms total)
T1150 019:466 JLINK_ReadReg(R3)  returns 0x10030020 (0000ms, 1127ms total)
T1150 019:466 JLINK_ReadReg(R4)  returns 0x00000000 (0000ms, 1127ms total)
T1150 019:466 JLINK_ReadReg(R5)  returns 0x20000000 (0000ms, 1127ms total)
T1150 019:466 JLINK_ReadReg(R6)  returns 0x00000000 (0000ms, 1127ms total)
T1150 019:466 JLINK_ReadReg(R7)  returns 0x00000000 (0000ms, 1127ms total)
T1150 019:466 JLINK_ReadReg(R8)  returns 0x00000000 (0000ms, 1127ms total)
T1150 019:466 JLINK_ReadReg(R9)  returns 0x20000160 (0000ms, 1127ms total)
T1150 019:466 JLINK_ReadReg(R10)  returns 0x08000544 (0000ms, 1127ms total)
T1150 019:466 JLINK_ReadReg(R11)  returns 0x00000000 (0000ms, 1127ms total)
T1150 019:466 JLINK_ReadReg(R12)  returns 0x00000020 (0000ms, 1127ms total)
T1150 019:466 JLINK_ReadReg(R13)  returns 0x20000660 (0000ms, 1127ms total)
T1150 019:466 JLINK_ReadReg(R14)  returns 0x08000175 (0000ms, 1127ms total)
T1150 019:466 JLINK_ReadReg(R15)  returns 0x08000484 (0000ms, 1127ms total)
T1150 019:466 JLINK_ReadReg(XPSR)  returns 0x01000000 (0000ms, 1127ms total)
T1150 019:466 JLINK_ReadReg(MSP)  returns 0x20000660 (0000ms, 1127ms total)
T1150 019:466 JLINK_ReadReg(PSP)  returns 0x20000800 (0000ms, 1127ms total)
T1150 019:466 JLINK_ReadReg(CFBP)  returns 0x00000000 (0000ms, 1127ms total)
T2384 019:467 JLINK_ReadMemU32(0xE0001004, 0x0001 Items, ...) -- CPU_ReadMem(4 bytes @ 0xE0001004) -- Data:  03 00 00 00  returns 0x01 (0001ms, 1127ms total)
T2384 019:526 JLINK_ReadMem (0x08000484, 0x003C Bytes, ...) -- CPU_ReadMem(64 bytes @ 0x08000480) -- Updating C cache (64 bytes @ 0x08000480) -- Read from C cache (60 bytes @ 0x08000484) -- Data:  10 B5 13 48 00 68 40 F0 01 00 11 49 08 60 08 46 ...  returns 0x00 (0002ms, 1128ms total)
T1150 027:337 JLINK_Step() -- Read from C cache (2 bytes @ 0x08000484) -- Not simulated  returns 0x00 (0008ms, 1130ms total)
T1150 027:345 JLINK_ReadReg(R15)  returns 0x08000486 (0000ms, 1138ms total)
T1150 027:345 JLINK_ReadReg(XPSR)  returns 0x01000000 (0001ms, 1138ms total)
T1150 027:346 JLINK_ReadReg(R0)  returns 0x08000485 (0000ms, 1139ms total)
T1150 027:346 JLINK_ReadReg(R1)  returns 0x0008A9DA (0000ms, 1139ms total)
T1150 027:346 JLINK_ReadReg(R2)  returns 0x40010C00 (0000ms, 1139ms total)
T1150 027:346 JLINK_ReadReg(R3)  returns 0x10030020 (0000ms, 1139ms total)
T1150 027:346 JLINK_ReadReg(R4)  returns 0x00000000 (0000ms, 1139ms total)
T1150 027:346 JLINK_ReadReg(R5)  returns 0x20000000 (0000ms, 1139ms total)
T1150 027:346 JLINK_ReadReg(R6)  returns 0x00000000 (0000ms, 1139ms total)
T1150 027:346 JLINK_ReadReg(R7)  returns 0x00000000 (0000ms, 1139ms total)
T1150 027:346 JLINK_ReadReg(R8)  returns 0x00000000 (0000ms, 1139ms total)
T1150 027:346 JLINK_ReadReg(R9)  returns 0x20000160 (0000ms, 1139ms total)
T1150 027:346 JLINK_ReadReg(R10)  returns 0x08000544 (0000ms, 1139ms total)
T1150 027:346 JLINK_ReadReg(R11)  returns 0x00000000 (0000ms, 1139ms total)
T1150 027:346 JLINK_ReadReg(R12)  returns 0x00000020 (0000ms, 1139ms total)
T1150 027:346 JLINK_ReadReg(R13)  returns 0x20000658 (0000ms, 1139ms total)
T1150 027:346 JLINK_ReadReg(R14)  returns 0x08000175 (0000ms, 1139ms total)
T1150 027:346 JLINK_ReadReg(R15)  returns 0x08000486 (0000ms, 1139ms total)
T1150 027:346 JLINK_ReadReg(XPSR)  returns 0x01000000 (0001ms, 1139ms total)
T1150 027:347 JLINK_ReadReg(MSP)  returns 0x20000658 (0000ms, 1140ms total)
T1150 027:347 JLINK_ReadReg(PSP)  returns 0x20000800 (0000ms, 1140ms total)
T1150 027:347 JLINK_ReadReg(CFBP)  returns 0x00000000 (0000ms, 1140ms total)
T1150 027:347 JLINK_ReadMem (0x2000065C, 0x0004 Bytes, ...) -- CPU_ReadMem(64 bytes @ 0x20000640) -- Updating C cache (64 bytes @ 0x20000640) -- Read from C cache (4 bytes @ 0x2000065C) -- Data:  75 01 00 08  returns 0x00 (0001ms, 1140ms total)
T2384 027:349 JLINK_ReadMemU32(0xE0001004, 0x0001 Items, ...) -- CPU_ReadMem(4 bytes @ 0xE0001004) -- Data:  07 00 00 00  returns 0x01 (0001ms, 1141ms total)
T2384 027:355 JLINK_ReadMem (0x08000484, 0x003C Bytes, ...) -- CPU_ReadMem(64 bytes @ 0x08000480) -- Updating C cache (64 bytes @ 0x08000480) -- Read from C cache (60 bytes @ 0x08000484) -- Data:  10 B5 13 48 00 68 40 F0 01 00 11 49 08 60 08 46 ...  returns 0x00 (0002ms, 1142ms total)
T1150 036:600 JLINK_Step() -- Read from C cache (2 bytes @ 0x08000486) -- Not simulated  returns 0x00 (0009ms, 1144ms total)
T1150 036:609 JLINK_ReadReg(R15)  returns 0x08000488 (0000ms, 1153ms total)
T1150 036:609 JLINK_ReadReg(XPSR)  returns 0x01000000 (0000ms, 1153ms total)
T1150 036:609 JLINK_ReadReg(R0)  returns 0x40021000 (0000ms, 1153ms total)
T1150 036:609 JLINK_ReadReg(R1)  returns 0x0008A9DA (0000ms, 1153ms total)
T1150 036:609 JLINK_ReadReg(R2)  returns 0x40010C00 (0000ms, 1153ms total)
T1150 036:609 JLINK_ReadReg(R3)  returns 0x10030020 (0000ms, 1153ms total)
T1150 036:609 JLINK_ReadReg(R4)  returns 0x00000000 (0001ms, 1153ms total)
T1150 036:610 JLINK_ReadReg(R5)  returns 0x20000000 (0000ms, 1154ms total)
T1150 036:610 JLINK_ReadReg(R6)  returns 0x00000000 (0000ms, 1154ms total)
T1150 036:610 JLINK_ReadReg(R7)  returns 0x00000000 (0000ms, 1154ms total)
T1150 036:610 JLINK_ReadReg(R8)  returns 0x00000000 (0000ms, 1154ms total)
T1150 036:610 JLINK_ReadReg(R9)  returns 0x20000160 (0000ms, 1154ms total)
T1150 036:610 JLINK_ReadReg(R10)  returns 0x08000544 (0000ms, 1154ms total)
T1150 036:610 JLINK_ReadReg(R11)  returns 0x00000000 (0000ms, 1154ms total)
T1150 036:610 JLINK_ReadReg(R12)  returns 0x00000020 (0000ms, 1154ms total)
T1150 036:610 JLINK_ReadReg(R13)  returns 0x20000658 (0000ms, 1154ms total)
T1150 036:610 JLINK_ReadReg(R14)  returns 0x08000175 (0000ms, 1154ms total)
T1150 036:610 JLINK_ReadReg(R15)  returns 0x08000488 (0000ms, 1154ms total)
T1150 036:610 JLINK_ReadReg(XPSR)  returns 0x01000000 (0000ms, 1154ms total)
T1150 036:610 JLINK_ReadReg(MSP)  returns 0x20000658 (0000ms, 1154ms total)
T1150 036:610 JLINK_ReadReg(PSP)  returns 0x20000800 (0000ms, 1154ms total)
T1150 036:610 JLINK_ReadReg(CFBP)  returns 0x00000000 (0000ms, 1154ms total)
T1150 036:610 JLINK_ReadMem (0x2000065C, 0x0004 Bytes, ...) -- CPU_ReadMem(64 bytes @ 0x20000640) -- Updating C cache (64 bytes @ 0x20000640) -- Read from C cache (4 bytes @ 0x2000065C) -- Data:  75 01 00 08  returns 0x00 (0002ms, 1154ms total)
T2384 036:612 JLINK_ReadMemU32(0xE0001004, 0x0001 Items, ...) -- CPU_ReadMem(4 bytes @ 0xE0001004) -- Data:  09 00 00 00  returns 0x01 (0001ms, 1156ms total)
T2384 036:616 JLINK_ReadMem (0x0800048A, 0x0002 Bytes, ...) -- CPU_ReadMem(64 bytes @ 0x08000480) -- Updating C cache (64 bytes @ 0x08000480) -- Read from C cache (2 bytes @ 0x0800048A) -- Data:  40 F0  returns 0x00 (0001ms, 1157ms total)
T2384 036:617 JLINK_ReadMem (0x0800048C, 0x003C Bytes, ...) -- CPU_ReadMem(64 bytes @ 0x080004C0) -- Updating C cache (64 bytes @ 0x080004C0) -- Read from C cache (60 bytes @ 0x0800048C) -- Data:  01 00 11 49 08 60 08 46 40 68 10 49 08 40 0E 49 ...  returns 0x00 (0002ms, 1158ms total)
T1150 037:232 JLINK_Step() -- Read from C cache (2 bytes @ 0x08000488) -- Not simulated  returns 0x00 (0009ms, 1160ms total)
T1150 037:241 JLINK_ReadReg(R15)  returns 0x0800048A (0000ms, 1169ms total)
T1150 037:241 JLINK_ReadReg(XPSR)  returns 0x01000000 (0000ms, 1169ms total)
T1150 037:241 JLINK_ReadReg(R0)  returns 0x00004C83 (0000ms, 1169ms total)
T1150 037:241 JLINK_ReadReg(R1)  returns 0x0008A9DA (0000ms, 1169ms total)
T1150 037:241 JLINK_ReadReg(R2)  returns 0x40010C00 (0000ms, 1169ms total)
T1150 037:241 JLINK_ReadReg(R3)  returns 0x10030020 (0000ms, 1169ms total)
T1150 037:241 JLINK_ReadReg(R4)  returns 0x00000000 (0000ms, 1169ms total)
T1150 037:241 JLINK_ReadReg(R5)  returns 0x20000000 (0000ms, 1169ms total)
T1150 037:241 JLINK_ReadReg(R6)  returns 0x00000000 (0000ms, 1169ms total)
T1150 037:241 JLINK_ReadReg(R7)  returns 0x00000000 (0000ms, 1169ms total)
T1150 037:241 JLINK_ReadReg(R8)  returns 0x00000000 (0000ms, 1169ms total)
T1150 037:241 JLINK_ReadReg(R9)  returns 0x20000160 (0000ms, 1169ms total)
T1150 037:241 JLINK_ReadReg(R10)  returns 0x08000544 (0000ms, 1169ms total)
T1150 037:242 JLINK_ReadReg(R11)  returns 0x00000000 (0000ms, 1170ms total)
T1150 037:242 JLINK_ReadReg(R12)  returns 0x00000020 (0000ms, 1170ms total)
T1150 037:242 JLINK_ReadReg(R13)  returns 0x20000658 (0000ms, 1170ms total)
T1150 037:242 JLINK_ReadReg(R14)  returns 0x08000175 (0000ms, 1170ms total)
T1150 037:242 JLINK_ReadReg(R15)  returns 0x0800048A (0000ms, 1170ms total)
T1150 037:242 JLINK_ReadReg(XPSR)  returns 0x01000000 (0000ms, 1170ms total)
T1150 037:242 JLINK_ReadReg(MSP)  returns 0x20000658 (0000ms, 1170ms total)
T1150 037:242 JLINK_ReadReg(PSP)  returns 0x20000800 (0000ms, 1170ms total)
T1150 037:242 JLINK_ReadReg(CFBP)  returns 0x00000000 (0000ms, 1170ms total)
T1150 037:242 JLINK_ReadMem (0x2000065C, 0x0004 Bytes, ...) -- CPU_ReadMem(64 bytes @ 0x20000640) -- Updating C cache (64 bytes @ 0x20000640) -- Read from C cache (4 bytes @ 0x2000065C) -- Data:  75 01 00 08  returns 0x00 (0002ms, 1170ms total)
T2384 037:244 JLINK_ReadMemU32(0xE0001004, 0x0001 Items, ...) -- CPU_ReadMem(4 bytes @ 0xE0001004) -- Data:  0C 00 00 00  returns 0x01 (0002ms, 1172ms total)
T2384 037:248 JLINK_ReadMem (0x0800048E, 0x0002 Bytes, ...) -- CPU_ReadMem(64 bytes @ 0x08000480) -- Updating C cache (64 bytes @ 0x08000480) -- Read from C cache (2 bytes @ 0x0800048E) -- Data:  11 49  returns 0x00 (0001ms, 1174ms total)
T2384 037:249 JLINK_ReadMem (0x08000490, 0x003C Bytes, ...) -- CPU_ReadMem(64 bytes @ 0x080004C0) -- Updating C cache (64 bytes @ 0x080004C0) -- Read from C cache (60 bytes @ 0x08000490) -- Data:  08 60 08 46 40 68 10 49 08 40 0E 49 48 60 08 46 ...  returns 0x00 (0002ms, 1175ms total)
T1150 037:872 JLINK_Step() -- Read from C cache (2 bytes @ 0x0800048A) -- Not simulated  returns 0x00 (0010ms, 1177ms total)
T1150 037:882 JLINK_ReadReg(R15)  returns 0x0800048E (0000ms, 1187ms total)
T1150 037:882 JLINK_ReadReg(XPSR)  returns 0x01000000 (0000ms, 1187ms total)
T1150 037:882 JLINK_ReadReg(R0)  returns 0x00004C83 (0000ms, 1187ms total)
T1150 037:882 JLINK_ReadReg(R1)  returns 0x0008A9DA (0000ms, 1187ms total)
T1150 037:882 JLINK_ReadReg(R2)  returns 0x40010C00 (0000ms, 1187ms total)
T1150 037:882 JLINK_ReadReg(R3)  returns 0x10030020 (0000ms, 1187ms total)
T1150 037:882 JLINK_ReadReg(R4)  returns 0x00000000 (0000ms, 1187ms total)
T1150 037:882 JLINK_ReadReg(R5)  returns 0x20000000 (0000ms, 1187ms total)
T1150 037:882 JLINK_ReadReg(R6)  returns 0x00000000 (0000ms, 1187ms total)
T1150 037:882 JLINK_ReadReg(R7)  returns 0x00000000 (0000ms, 1187ms total)
T1150 037:882 JLINK_ReadReg(R8)  returns 0x00000000 (0000ms, 1187ms total)
T1150 037:882 JLINK_ReadReg(R9)  returns 0x20000160 (0000ms, 1187ms total)
T1150 037:882 JLINK_ReadReg(R10)  returns 0x08000544 (0001ms, 1187ms total)
T1150 037:883 JLINK_ReadReg(R11)  returns 0x00000000 (0000ms, 1188ms total)
T1150 037:883 JLINK_ReadReg(R12)  returns 0x00000020 (0000ms, 1188ms total)
T1150 037:883 JLINK_ReadReg(R13)  returns 0x20000658 (0000ms, 1188ms total)
T1150 037:883 JLINK_ReadReg(R14)  returns 0x08000175 (0000ms, 1188ms total)
T1150 037:883 JLINK_ReadReg(R15)  returns 0x0800048E (0000ms, 1188ms total)
T1150 037:883 JLINK_ReadReg(XPSR)  returns 0x01000000 (0000ms, 1188ms total)
T1150 037:883 JLINK_ReadReg(MSP)  returns 0x20000658 (0000ms, 1188ms total)
T1150 037:883 JLINK_ReadReg(PSP)  returns 0x20000800 (0000ms, 1188ms total)
T1150 037:883 JLINK_ReadReg(CFBP)  returns 0x00000000 (0000ms, 1188ms total)
T1150 037:883 JLINK_ReadMem (0x2000065C, 0x0004 Bytes, ...) -- CPU_ReadMem(64 bytes @ 0x20000640) -- Updating C cache (64 bytes @ 0x20000640) -- Read from C cache (4 bytes @ 0x2000065C) -- Data:  75 01 00 08  returns 0x00 (0002ms, 1188ms total)
T2384 037:885 JLINK_ReadMemU32(0xE0001004, 0x0001 Items, ...) -- CPU_ReadMem(4 bytes @ 0xE0001004) -- Data:  0D 00 00 00  returns 0x01 (0001ms, 1190ms total)
T2384 037:888 JLINK_ReadMem (0x08000490, 0x003C Bytes, ...) -- CPU_ReadMem(128 bytes @ 0x08000480) -- Updating C cache (128 bytes @ 0x08000480) -- Read from C cache (60 bytes @ 0x08000490) -- Data:  08 60 08 46 40 68 10 49 08 40 0E 49 48 60 08 46 ...  returns 0x00 (0003ms, 1191ms total)
T1150 038:520 JLINK_Step() -- Read from C cache (2 bytes @ 0x0800048E) -- Not simulated  returns 0x00 (0009ms, 1194ms total)
T1150 038:529 JLINK_ReadReg(R15)  returns 0x08000490 (0000ms, 1203ms total)
T1150 038:529 JLINK_ReadReg(XPSR)  returns 0x01000000 (0000ms, 1203ms total)
T1150 038:529 JLINK_ReadReg(R0)  returns 0x00004C83 (0000ms, 1203ms total)
T1150 038:529 JLINK_ReadReg(R1)  returns 0x40021000 (0000ms, 1203ms total)
T1150 038:529 JLINK_ReadReg(R2)  returns 0x40010C00 (0000ms, 1203ms total)
T1150 038:529 JLINK_ReadReg(R3)  returns 0x10030020 (0000ms, 1203ms total)
T1150 038:529 JLINK_ReadReg(R4)  returns 0x00000000 (0000ms, 1203ms total)
T1150 038:529 JLINK_ReadReg(R5)  returns 0x20000000 (0000ms, 1203ms total)
T1150 038:529 JLINK_ReadReg(R6)  returns 0x00000000 (0000ms, 1203ms total)
T1150 038:529 JLINK_ReadReg(R7)  returns 0x00000000 (0000ms, 1203ms total)
T1150 038:529 JLINK_ReadReg(R8)  returns 0x00000000 (0000ms, 1203ms total)
T1150 038:529 JLINK_ReadReg(R9)  returns 0x20000160 (0000ms, 1203ms total)
T1150 038:529 JLINK_ReadReg(R10)  returns 0x08000544 (0000ms, 1203ms total)
T1150 038:529 JLINK_ReadReg(R11)  returns 0x00000000 (0000ms, 1203ms total)
T1150 038:529 JLINK_ReadReg(R12)  returns 0x00000020 (0000ms, 1203ms total)
T1150 038:529 JLINK_ReadReg(R13)  returns 0x20000658 (0001ms, 1203ms total)
T1150 038:530 JLINK_ReadReg(R14)  returns 0x08000175 (0000ms, 1204ms total)
T1150 038:530 JLINK_ReadReg(R15)  returns 0x08000490 (0000ms, 1204ms total)
T1150 038:530 JLINK_ReadReg(XPSR)  returns 0x01000000 (0000ms, 1204ms total)
T1150 038:530 JLINK_ReadReg(MSP)  returns 0x20000658 (0000ms, 1204ms total)
T1150 038:530 JLINK_ReadReg(PSP)  returns 0x20000800 (0000ms, 1204ms total)
T1150 038:530 JLINK_ReadReg(CFBP)  returns 0x00000000 (0000ms, 1204ms total)
T1150 038:530 JLINK_ReadMem (0x2000065C, 0x0004 Bytes, ...) -- CPU_ReadMem(64 bytes @ 0x20000640) -- Updating C cache (64 bytes @ 0x20000640) -- Read from C cache (4 bytes @ 0x2000065C) -- Data:  75 01 00 08  returns 0x00 (0001ms, 1204ms total)
T2384 038:532 JLINK_ReadMemU32(0xE0001004, 0x0001 Items, ...) -- CPU_ReadMem(4 bytes @ 0xE0001004) -- Data:  0F 00 00 00  returns 0x01 (0001ms, 1205ms total)
T1150 039:233 JLINK_Step() -- CPU_ReadMem(64 bytes @ 0x08000480) -- Updating C cache (64 bytes @ 0x08000480) -- Read from C cache (2 bytes @ 0x08000490) -- Not simulated  returns 0x00 (0011ms, 1206ms total)
T1150 039:244 JLINK_ReadReg(R15)  returns 0x08000492 (0000ms, 1217ms total)
T1150 039:244 JLINK_ReadReg(XPSR)  returns 0x01000000 (0000ms, 1217ms total)
T1150 039:244 JLINK_ReadReg(R0)  returns 0x00004C83 (0000ms, 1217ms total)
T1150 039:244 JLINK_ReadReg(R1)  returns 0x40021000 (0000ms, 1217ms total)
T1150 039:244 JLINK_ReadReg(R2)  returns 0x40010C00 (0000ms, 1217ms total)
T1150 039:244 JLINK_ReadReg(R3)  returns 0x10030020 (0000ms, 1217ms total)
T1150 039:244 JLINK_ReadReg(R4)  returns 0x00000000 (0000ms, 1217ms total)
T1150 039:244 JLINK_ReadReg(R5)  returns 0x20000000 (0000ms, 1217ms total)
T1150 039:244 JLINK_ReadReg(R6)  returns 0x00000000 (0000ms, 1217ms total)
T1150 039:244 JLINK_ReadReg(R7)  returns 0x00000000 (0000ms, 1217ms total)
T1150 039:244 JLINK_ReadReg(R8)  returns 0x00000000 (0000ms, 1217ms total)
T1150 039:244 JLINK_ReadReg(R9)  returns 0x20000160 (0000ms, 1217ms total)
T1150 039:244 JLINK_ReadReg(R10)  returns 0x08000544 (0000ms, 1217ms total)
T1150 039:244 JLINK_ReadReg(R11)  returns 0x00000000 (0000ms, 1217ms total)
T1150 039:244 JLINK_ReadReg(R12)  returns 0x00000020 (0000ms, 1217ms total)
T1150 039:244 JLINK_ReadReg(R13)  returns 0x20000658 (0000ms, 1217ms total)
T1150 039:244 JLINK_ReadReg(R14)  returns 0x08000175 (0001ms, 1217ms total)
T1150 039:245 JLINK_ReadReg(R15)  returns 0x08000492 (0000ms, 1218ms total)
T1150 039:245 JLINK_ReadReg(XPSR)  returns 0x01000000 (0000ms, 1218ms total)
T1150 039:245 JLINK_ReadReg(MSP)  returns 0x20000658 (0000ms, 1218ms total)
T1150 039:245 JLINK_ReadReg(PSP)  returns 0x20000800 (0000ms, 1218ms total)
T1150 039:245 JLINK_ReadReg(CFBP)  returns 0x00000000 (0000ms, 1218ms total)
T1150 039:245 JLINK_ReadMem (0x2000065C, 0x0004 Bytes, ...) -- CPU_ReadMem(64 bytes @ 0x20000640) -- Updating C cache (64 bytes @ 0x20000640) -- Read from C cache (4 bytes @ 0x2000065C) -- Data:  75 01 00 08  returns 0x00 (0002ms, 1218ms total)
T2384 039:247 JLINK_ReadMemU32(0xE0001004, 0x0001 Items, ...) -- CPU_ReadMem(4 bytes @ 0xE0001004) -- Data:  10 00 00 00  returns 0x01 (0001ms, 1220ms total)
T2384 039:253 JLINK_ReadMem (0x08000492, 0x0002 Bytes, ...) -- CPU_ReadMem(64 bytes @ 0x08000480) -- Updating C cache (64 bytes @ 0x08000480) -- Read from C cache (2 bytes @ 0x08000492) -- Data:  08 46  returns 0x00 (0002ms, 1221ms total)
T2384 039:255 JLINK_ReadMem (0x08000494, 0x003C Bytes, ...) -- CPU_ReadMem(64 bytes @ 0x080004C0) -- Updating C cache (64 bytes @ 0x080004C0) -- Read from C cache (60 bytes @ 0x08000494) -- Data:  40 68 10 49 08 40 0E 49 48 60 08 46 00 68 0E 49 ...  returns 0x00 (0001ms, 1223ms total)
T1150 046:865 JLINK_Step() -- Read from C cache (2 bytes @ 0x08000492) -- Not simulated  returns 0x00 (0009ms, 1224ms total)
T1150 046:874 JLINK_ReadReg(R15)  returns 0x08000494 (0000ms, 1233ms total)
T1150 046:874 JLINK_ReadReg(XPSR)  returns 0x01000000 (0000ms, 1233ms total)
T1150 046:874 JLINK_ReadReg(R0)  returns 0x40021000 (0000ms, 1233ms total)
T1150 046:874 JLINK_ReadReg(R1)  returns 0x40021000 (0000ms, 1233ms total)
T1150 046:874 JLINK_ReadReg(R2)  returns 0x40010C00 (0000ms, 1233ms total)
T1150 046:874 JLINK_ReadReg(R3)  returns 0x10030020 (0000ms, 1233ms total)
T1150 046:874 JLINK_ReadReg(R4)  returns 0x00000000 (0000ms, 1233ms total)
T1150 046:874 JLINK_ReadReg(R5)  returns 0x20000000 (0000ms, 1233ms total)
T1150 046:874 JLINK_ReadReg(R6)  returns 0x00000000 (0000ms, 1233ms total)
T1150 046:874 JLINK_ReadReg(R7)  returns 0x00000000 (0000ms, 1233ms total)
T1150 046:874 JLINK_ReadReg(R8)  returns 0x00000000 (0000ms, 1233ms total)
T1150 046:874 JLINK_ReadReg(R9)  returns 0x20000160 (0000ms, 1233ms total)
T1150 046:874 JLINK_ReadReg(R10)  returns 0x08000544 (0000ms, 1233ms total)
T1150 046:875 JLINK_ReadReg(R11)  returns 0x00000000 (0000ms, 1233ms total)
T1150 046:875 JLINK_ReadReg(R12)  returns 0x00000020 (0000ms, 1233ms total)
T1150 046:875 JLINK_ReadReg(R13)  returns 0x20000658 (0000ms, 1233ms total)
T1150 046:875 JLINK_ReadReg(R14)  returns 0x08000175 (0000ms, 1233ms total)
T1150 046:875 JLINK_ReadReg(R15)  returns 0x08000494 (0000ms, 1233ms total)
T1150 046:875 JLINK_ReadReg(XPSR)  returns 0x01000000 (0000ms, 1233ms total)
T1150 046:875 JLINK_ReadReg(MSP)  returns 0x20000658 (0000ms, 1233ms total)
T1150 046:875 JLINK_ReadReg(PSP)  returns 0x20000800 (0000ms, 1233ms total)
T1150 046:875 JLINK_ReadReg(CFBP)  returns 0x00000000 (0000ms, 1233ms total)
T1150 046:875 JLINK_ReadMem (0x2000065C, 0x0004 Bytes, ...) -- CPU_ReadMem(64 bytes @ 0x20000640) -- Updating C cache (64 bytes @ 0x20000640) -- Read from C cache (4 bytes @ 0x2000065C) -- Data:  75 01 00 08  returns 0x00 (0002ms, 1233ms total)
T2384 046:877 JLINK_ReadMemU32(0xE0001004, 0x0001 Items, ...) -- CPU_ReadMem(4 bytes @ 0xE0001004) -- Data:  11 00 00 00  returns 0x01 (0001ms, 1235ms total)
T1150 047:433 JLINK_Step() -- CPU_ReadMem(64 bytes @ 0x08000480) -- Updating C cache (64 bytes @ 0x08000480) -- Read from C cache (2 bytes @ 0x08000494) -- Not simulated  returns 0x00 (0009ms, 1236ms total)
T1150 047:442 JLINK_ReadReg(R15)  returns 0x08000496 (0000ms, 1245ms total)
T1150 047:442 JLINK_ReadReg(XPSR)  returns 0x01000000 (0000ms, 1245ms total)
T1150 047:442 JLINK_ReadReg(R0)  returns 0x00000000 (0001ms, 1245ms total)
T1150 047:443 JLINK_ReadReg(R1)  returns 0x40021000 (0000ms, 1246ms total)
T1150 047:443 JLINK_ReadReg(R2)  returns 0x40010C00 (0000ms, 1246ms total)
T1150 047:443 JLINK_ReadReg(R3)  returns 0x10030020 (0000ms, 1246ms total)
T1150 047:443 JLINK_ReadReg(R4)  returns 0x00000000 (0000ms, 1246ms total)
T1150 047:443 JLINK_ReadReg(R5)  returns 0x20000000 (0000ms, 1246ms total)
T1150 047:443 JLINK_ReadReg(R6)  returns 0x00000000 (0000ms, 1246ms total)
T1150 047:443 JLINK_ReadReg(R7)  returns 0x00000000 (0000ms, 1246ms total)
T1150 047:443 JLINK_ReadReg(R8)  returns 0x00000000 (0000ms, 1246ms total)
T1150 047:443 JLINK_ReadReg(R9)  returns 0x20000160 (0000ms, 1246ms total)
T1150 047:443 JLINK_ReadReg(R10)  returns 0x08000544 (0000ms, 1246ms total)
T1150 047:443 JLINK_ReadReg(R11)  returns 0x00000000 (0000ms, 1246ms total)
T1150 047:443 JLINK_ReadReg(R12)  returns 0x00000020 (0000ms, 1246ms total)
T1150 047:443 JLINK_ReadReg(R13)  returns 0x20000658 (0000ms, 1246ms total)
T1150 047:443 JLINK_ReadReg(R14)  returns 0x08000175 (0000ms, 1246ms total)
T1150 047:443 JLINK_ReadReg(R15)  returns 0x08000496 (0000ms, 1246ms total)
T1150 047:443 JLINK_ReadReg(XPSR)  returns 0x01000000 (0000ms, 1246ms total)
T1150 047:443 JLINK_ReadReg(MSP)  returns 0x20000658 (0000ms, 1246ms total)
T1150 047:443 JLINK_ReadReg(PSP)  returns 0x20000800 (0001ms, 1246ms total)
T1150 047:444 JLINK_ReadReg(CFBP)  returns 0x00000000 (0000ms, 1247ms total)
T1150 047:444 JLINK_ReadMem (0x2000065C, 0x0004 Bytes, ...) -- CPU_ReadMem(64 bytes @ 0x20000640) -- Updating C cache (64 bytes @ 0x20000640) -- Read from C cache (4 bytes @ 0x2000065C) -- Data:  75 01 00 08  returns 0x00 (0001ms, 1247ms total)
T2384 047:446 JLINK_ReadMemU32(0xE0001004, 0x0001 Items, ...) -- CPU_ReadMem(4 bytes @ 0xE0001004) -- Data:  14 00 00 00  returns 0x01 (0001ms, 1248ms total)
T1150 047:961 JLINK_Step() -- CPU_ReadMem(64 bytes @ 0x08000480) -- Updating C cache (64 bytes @ 0x08000480) -- Read from C cache (2 bytes @ 0x08000496) -- Not simulated  returns 0x00 (0010ms, 1249ms total)
T1150 047:971 JLINK_ReadReg(R15)  returns 0x08000498 (0000ms, 1259ms total)
T1150 047:971 JLINK_ReadReg(XPSR)  returns 0x01000000 (0000ms, 1259ms total)
T1150 047:971 JLINK_ReadReg(R0)  returns 0x00000000 (0000ms, 1259ms total)
T1150 047:971 JLINK_ReadReg(R1)  returns 0xF8FF0000 (0000ms, 1259ms total)
T1150 047:971 JLINK_ReadReg(R2)  returns 0x40010C00 (0000ms, 1259ms total)
T1150 047:971 JLINK_ReadReg(R3)  returns 0x10030020 (0000ms, 1259ms total)
T1150 047:971 JLINK_ReadReg(R4)  returns 0x00000000 (0000ms, 1259ms total)
T1150 047:971 JLINK_ReadReg(R5)  returns 0x20000000 (0000ms, 1259ms total)
T1150 047:972 JLINK_ReadReg(R6)  returns 0x00000000 (0000ms, 1260ms total)
T1150 047:972 JLINK_ReadReg(R7)  returns 0x00000000 (0000ms, 1260ms total)
T1150 047:972 JLINK_ReadReg(R8)  returns 0x00000000 (0000ms, 1260ms total)
T1150 047:972 JLINK_ReadReg(R9)  returns 0x20000160 (0000ms, 1260ms total)
T1150 047:972 JLINK_ReadReg(R10)  returns 0x08000544 (0000ms, 1260ms total)
T1150 047:972 JLINK_ReadReg(R11)  returns 0x00000000 (0000ms, 1260ms total)
T1150 047:972 JLINK_ReadReg(R12)  returns 0x00000020 (0000ms, 1260ms total)
T1150 047:972 JLINK_ReadReg(R13)  returns 0x20000658 (0000ms, 1260ms total)
T1150 047:972 JLINK_ReadReg(R14)  returns 0x08000175 (0000ms, 1260ms total)
T1150 047:972 JLINK_ReadReg(R15)  returns 0x08000498 (0000ms, 1260ms total)
T1150 047:972 JLINK_ReadReg(XPSR)  returns 0x01000000 (0000ms, 1260ms total)
T1150 047:972 JLINK_ReadReg(MSP)  returns 0x20000658 (0000ms, 1260ms total)
T1150 047:972 JLINK_ReadReg(PSP)  returns 0x20000800 (0000ms, 1260ms total)
T1150 047:972 JLINK_ReadReg(CFBP)  returns 0x00000000 (0000ms, 1260ms total)
T1150 047:972 JLINK_ReadMem (0x2000065C, 0x0004 Bytes, ...) -- CPU_ReadMem(64 bytes @ 0x20000640) -- Updating C cache (64 bytes @ 0x20000640) -- Read from C cache (4 bytes @ 0x2000065C) -- Data:  75 01 00 08  returns 0x00 (0002ms, 1260ms total)
T2384 047:974 JLINK_ReadMemU32(0xE0001004, 0x0001 Items, ...) -- CPU_ReadMem(4 bytes @ 0xE0001004) -- Data:  16 00 00 00  returns 0x01 (0002ms, 1262ms total)
T2384 047:978 JLINK_ReadMem (0x0800049A, 0x0002 Bytes, ...) -- CPU_ReadMem(64 bytes @ 0x08000480) -- Updating C cache (64 bytes @ 0x08000480) -- Read from C cache (2 bytes @ 0x0800049A) -- Data:  0E 49  returns 0x00 (0002ms, 1264ms total)
T2384 047:980 JLINK_ReadMem (0x0800049C, 0x003C Bytes, ...) -- CPU_ReadMem(64 bytes @ 0x080004C0) -- Updating C cache (64 bytes @ 0x080004C0) -- Read from C cache (60 bytes @ 0x0800049C) -- Data:  48 60 08 46 00 68 0E 49 08 40 0B 49 08 60 08 46 ...  returns 0x00 (0001ms, 1266ms total)
T1150 049:296 JLINK_Step() -- Read from C cache (2 bytes @ 0x08000498) -- Not simulated  returns 0x00 (0010ms, 1267ms total)
T1150 049:306 JLINK_ReadReg(R15)  returns 0x0800049A (0000ms, 1277ms total)
T1150 049:306 JLINK_ReadReg(XPSR)  returns 0x41000000 (0000ms, 1277ms total)
T1150 049:306 JLINK_ReadReg(R0)  returns 0x00000000 (0001ms, 1277ms total)
T1150 049:307 JLINK_ReadReg(R1)  returns 0xF8FF0000 (0000ms, 1278ms total)
T1150 049:307 JLINK_ReadReg(R2)  returns 0x40010C00 (0000ms, 1278ms total)
T1150 049:307 JLINK_ReadReg(R3)  returns 0x10030020 (0000ms, 1278ms total)
T1150 049:307 JLINK_ReadReg(R4)  returns 0x00000000 (0000ms, 1278ms total)
T1150 049:307 JLINK_ReadReg(R5)  returns 0x20000000 (0000ms, 1278ms total)
T1150 049:307 JLINK_ReadReg(R6)  returns 0x00000000 (0000ms, 1278ms total)
T1150 049:307 JLINK_ReadReg(R7)  returns 0x00000000 (0000ms, 1278ms total)
T1150 049:307 JLINK_ReadReg(R8)  returns 0x00000000 (0000ms, 1278ms total)
T1150 049:307 JLINK_ReadReg(R9)  returns 0x20000160 (0000ms, 1278ms total)
T1150 049:307 JLINK_ReadReg(R10)  returns 0x08000544 (0000ms, 1278ms total)
T1150 049:307 JLINK_ReadReg(R11)  returns 0x00000000 (0000ms, 1278ms total)
T1150 049:307 JLINK_ReadReg(R12)  returns 0x00000020 (0000ms, 1278ms total)
T1150 049:307 JLINK_ReadReg(R13)  returns 0x20000658 (0000ms, 1278ms total)
T1150 049:307 JLINK_ReadReg(R14)  returns 0x08000175 (0000ms, 1278ms total)
T1150 049:307 JLINK_ReadReg(R15)  returns 0x0800049A (0000ms, 1278ms total)
T1150 049:307 JLINK_ReadReg(XPSR)  returns 0x41000000 (0000ms, 1278ms total)
T1150 049:307 JLINK_ReadReg(MSP)  returns 0x20000658 (0000ms, 1278ms total)
T1150 049:307 JLINK_ReadReg(PSP)  returns 0x20000800 (0000ms, 1278ms total)
T1150 049:308 JLINK_ReadReg(CFBP)  returns 0x00000000 (0000ms, 1279ms total)
T1150 049:308 JLINK_ReadMem (0x2000065C, 0x0004 Bytes, ...) -- CPU_ReadMem(64 bytes @ 0x20000640) -- Updating C cache (64 bytes @ 0x20000640) -- Read from C cache (4 bytes @ 0x2000065C) -- Data:  75 01 00 08  returns 0x00 (0001ms, 1279ms total)
T2384 049:310 JLINK_ReadMemU32(0xE0001004, 0x0001 Items, ...) -- CPU_ReadMem(4 bytes @ 0xE0001004) -- Data:  17 00 00 00  returns 0x01 (0001ms, 1280ms total)
T2384 049:313 JLINK_ReadMem (0x0800049C, 0x003C Bytes, ...) -- CPU_ReadMem(128 bytes @ 0x08000480) -- Updating C cache (128 bytes @ 0x08000480) -- Read from C cache (60 bytes @ 0x0800049C) -- Data:  48 60 08 46 00 68 0E 49 08 40 0B 49 08 60 08 46 ...  returns 0x00 (0003ms, 1281ms total)
T1150 050:392 JLINK_Step() -- Read from C cache (2 bytes @ 0x0800049A) -- Not simulated  returns 0x00 (0009ms, 1284ms total)
T1150 050:401 JLINK_ReadReg(R15)  returns 0x0800049C (0000ms, 1293ms total)
T1150 050:401 JLINK_ReadReg(XPSR)  returns 0x41000000 (0000ms, 1293ms total)
T1150 050:401 JLINK_ReadReg(R0)  returns 0x00000000 (0000ms, 1293ms total)
T1150 050:401 JLINK_ReadReg(R1)  returns 0x40021000 (0000ms, 1293ms total)
T1150 050:401 JLINK_ReadReg(R2)  returns 0x40010C00 (0000ms, 1293ms total)
T1150 050:401 JLINK_ReadReg(R3)  returns 0x10030020 (0000ms, 1293ms total)
T1150 050:401 JLINK_ReadReg(R4)  returns 0x00000000 (0000ms, 1293ms total)
T1150 050:401 JLINK_ReadReg(R5)  returns 0x20000000 (0001ms, 1293ms total)
T1150 050:402 JLINK_ReadReg(R6)  returns 0x00000000 (0000ms, 1294ms total)
T1150 050:402 JLINK_ReadReg(R7)  returns 0x00000000 (0000ms, 1294ms total)
T1150 050:402 JLINK_ReadReg(R8)  returns 0x00000000 (0000ms, 1294ms total)
T1150 050:402 JLINK_ReadReg(R9)  returns 0x20000160 (0000ms, 1294ms total)
T1150 050:402 JLINK_ReadReg(R10)  returns 0x08000544 (0000ms, 1294ms total)
T1150 050:402 JLINK_ReadReg(R11)  returns 0x00000000 (0000ms, 1294ms total)
T1150 050:402 JLINK_ReadReg(R12)  returns 0x00000020 (0000ms, 1294ms total)
T1150 050:402 JLINK_ReadReg(R13)  returns 0x20000658 (0000ms, 1294ms total)
T1150 050:402 JLINK_ReadReg(R14)  returns 0x08000175 (0000ms, 1294ms total)
T1150 050:402 JLINK_ReadReg(R15)  returns 0x0800049C (0000ms, 1294ms total)
T1150 050:402 JLINK_ReadReg(XPSR)  returns 0x41000000 (0000ms, 1294ms total)
T1150 050:402 JLINK_ReadReg(MSP)  returns 0x20000658 (0000ms, 1294ms total)
T1150 050:402 JLINK_ReadReg(PSP)  returns 0x20000800 (0000ms, 1294ms total)
T1150 050:402 JLINK_ReadReg(CFBP)  returns 0x00000000 (0000ms, 1294ms total)
T1150 050:402 JLINK_ReadMem (0x2000065C, 0x0004 Bytes, ...) -- CPU_ReadMem(64 bytes @ 0x20000640) -- Updating C cache (64 bytes @ 0x20000640) -- Read from C cache (4 bytes @ 0x2000065C) -- Data:  75 01 00 08  returns 0x00 (0002ms, 1294ms total)
T2384 050:404 JLINK_ReadMemU32(0xE0001004, 0x0001 Items, ...) -- CPU_ReadMem(4 bytes @ 0xE0001004) -- Data:  19 00 00 00  returns 0x01 (0001ms, 1296ms total)
T1150 051:112 JLINK_Step() -- CPU_ReadMem(64 bytes @ 0x08000480) -- Updating C cache (64 bytes @ 0x08000480) -- Read from C cache (2 bytes @ 0x0800049C) -- Not simulated  returns 0x00 (0010ms, 1297ms total)
T1150 051:122 JLINK_ReadReg(R15)  returns 0x0800049E (0000ms, 1307ms total)
T1150 051:122 JLINK_ReadReg(XPSR)  returns 0x41000000 (0000ms, 1307ms total)
T1150 051:122 JLINK_ReadReg(R0)  returns 0x00000000 (0000ms, 1307ms total)
T1150 051:122 JLINK_ReadReg(R1)  returns 0x40021000 (0000ms, 1307ms total)
T1150 051:122 JLINK_ReadReg(R2)  returns 0x40010C00 (0000ms, 1307ms total)
T1150 051:122 JLINK_ReadReg(R3)  returns 0x10030020 (0000ms, 1307ms total)
T1150 051:122 JLINK_ReadReg(R4)  returns 0x00000000 (0000ms, 1307ms total)
T1150 051:122 JLINK_ReadReg(R5)  returns 0x20000000 (0000ms, 1307ms total)
T1150 051:122 JLINK_ReadReg(R6)  returns 0x00000000 (0000ms, 1307ms total)
T1150 051:122 JLINK_ReadReg(R7)  returns 0x00000000 (0000ms, 1307ms total)
T1150 051:122 JLINK_ReadReg(R8)  returns 0x00000000 (0000ms, 1307ms total)
T1150 051:122 JLINK_ReadReg(R9)  returns 0x20000160 (0000ms, 1307ms total)
T1150 051:122 JLINK_ReadReg(R10)  returns 0x08000544 (0001ms, 1307ms total)
T1150 051:123 JLINK_ReadReg(R11)  returns 0x00000000 (0000ms, 1308ms total)
T1150 051:123 JLINK_ReadReg(R12)  returns 0x00000020 (0000ms, 1308ms total)
T1150 051:123 JLINK_ReadReg(R13)  returns 0x20000658 (0000ms, 1308ms total)
T1150 051:123 JLINK_ReadReg(R14)  returns 0x08000175 (0000ms, 1308ms total)
T1150 051:123 JLINK_ReadReg(R15)  returns 0x0800049E (0000ms, 1308ms total)
T1150 051:123 JLINK_ReadReg(XPSR)  returns 0x41000000 (0000ms, 1308ms total)
T1150 051:123 JLINK_ReadReg(MSP)  returns 0x20000658 (0000ms, 1308ms total)
T1150 051:123 JLINK_ReadReg(PSP)  returns 0x20000800 (0000ms, 1308ms total)
T1150 051:123 JLINK_ReadReg(CFBP)  returns 0x00000000 (0000ms, 1308ms total)
T1150 051:123 JLINK_ReadMem (0x2000065C, 0x0004 Bytes, ...) -- CPU_ReadMem(64 bytes @ 0x20000640) -- Updating C cache (64 bytes @ 0x20000640) -- Read from C cache (4 bytes @ 0x2000065C) -- Data:  75 01 00 08  returns 0x00 (0002ms, 1308ms total)
T2384 051:125 JLINK_ReadMemU32(0xE0001004, 0x0001 Items, ...) -- CPU_ReadMem(4 bytes @ 0xE0001004) -- Data:  1A 00 00 00  returns 0x01 (0002ms, 1310ms total)
T2384 051:136 JLINK_ReadMem (0x0800049E, 0x0002 Bytes, ...) -- CPU_ReadMem(64 bytes @ 0x08000480) -- Updating C cache (64 bytes @ 0x08000480) -- Read from C cache (2 bytes @ 0x0800049E) -- Data:  08 46  returns 0x00 (0002ms, 1312ms total)
T2384 051:138 JLINK_ReadMem (0x080004A0, 0x003C Bytes, ...) -- CPU_ReadMem(64 bytes @ 0x080004C0) -- Updating C cache (64 bytes @ 0x080004C0) -- Read from C cache (60 bytes @ 0x080004A0) -- Data:  00 68 0E 49 08 40 0B 49 08 60 08 46 00 68 20 F4 ...  returns 0x00 (0001ms, 1314ms total)
T1150 062:824 JLINK_Step() -- Read from C cache (2 bytes @ 0x0800049E) -- Not simulated  returns 0x00 (0008ms, 1315ms total)
T1150 062:832 JLINK_ReadReg(R15)  returns 0x080004A0 (0000ms, 1323ms total)
T1150 062:832 JLINK_ReadReg(XPSR)  returns 0x41000000 (0000ms, 1323ms total)
T1150 062:832 JLINK_ReadReg(R0)  returns 0x40021000 (0000ms, 1323ms total)
T1150 062:832 JLINK_ReadReg(R1)  returns 0x40021000 (0000ms, 1323ms total)
T1150 062:832 JLINK_ReadReg(R2)  returns 0x40010C00 (0000ms, 1323ms total)
T1150 062:832 JLINK_ReadReg(R3)  returns 0x10030020 (0001ms, 1323ms total)
T1150 062:833 JLINK_ReadReg(R4)  returns 0x00000000 (0000ms, 1324ms total)
T1150 062:833 JLINK_ReadReg(R5)  returns 0x20000000 (0000ms, 1324ms total)
T1150 062:833 JLINK_ReadReg(R6)  returns 0x00000000 (0000ms, 1324ms total)
T1150 062:833 JLINK_ReadReg(R7)  returns 0x00000000 (0000ms, 1324ms total)
T1150 062:833 JLINK_ReadReg(R8)  returns 0x00000000 (0000ms, 1324ms total)
T1150 062:833 JLINK_ReadReg(R9)  returns 0x20000160 (0000ms, 1324ms total)
T1150 062:833 JLINK_ReadReg(R10)  returns 0x08000544 (0000ms, 1324ms total)
T1150 062:833 JLINK_ReadReg(R11)  returns 0x00000000 (0000ms, 1324ms total)
T1150 062:833 JLINK_ReadReg(R12)  returns 0x00000020 (0000ms, 1324ms total)
T1150 062:833 JLINK_ReadReg(R13)  returns 0x20000658 (0000ms, 1324ms total)
T1150 062:833 JLINK_ReadReg(R14)  returns 0x08000175 (0000ms, 1324ms total)
T1150 062:833 JLINK_ReadReg(R15)  returns 0x080004A0 (0000ms, 1324ms total)
T1150 062:833 JLINK_ReadReg(XPSR)  returns 0x41000000 (0000ms, 1324ms total)
T1150 062:833 JLINK_ReadReg(MSP)  returns 0x20000658 (0000ms, 1324ms total)
T1150 062:833 JLINK_ReadReg(PSP)  returns 0x20000800 (0000ms, 1324ms total)
T1150 062:833 JLINK_ReadReg(CFBP)  returns 0x00000000 (0000ms, 1324ms total)
T1150 062:833 JLINK_ReadMem (0x2000065C, 0x0004 Bytes, ...) -- CPU_ReadMem(64 bytes @ 0x20000640) -- Updating C cache (64 bytes @ 0x20000640) -- Read from C cache (4 bytes @ 0x2000065C) -- Data:  75 01 00 08  returns 0x00 (0002ms, 1324ms total)
T2384 062:836 JLINK_ReadMemU32(0xE0001004, 0x0001 Items, ...) -- CPU_ReadMem(4 bytes @ 0xE0001004) -- Data:  1B 00 00 00  returns 0x01 (0001ms, 1326ms total)
T1150 063:320 JLINK_Step() -- CPU_ReadMem(64 bytes @ 0x08000480) -- Updating C cache (64 bytes @ 0x08000480) -- Read from C cache (2 bytes @ 0x080004A0) -- Not simulated  returns 0x00 (0008ms, 1327ms total)
T1150 063:328 JLINK_ReadReg(R15)  returns 0x080004A2 (0000ms, 1335ms total)
T1150 063:328 JLINK_ReadReg(XPSR)  returns 0x41000000 (0001ms, 1335ms total)
T1150 063:329 JLINK_ReadReg(R0)  returns 0x00004C83 (0000ms, 1336ms total)
T1150 063:329 JLINK_ReadReg(R1)  returns 0x40021000 (0000ms, 1336ms total)
T1150 063:329 JLINK_ReadReg(R2)  returns 0x40010C00 (0000ms, 1336ms total)
T1150 063:329 JLINK_ReadReg(R3)  returns 0x10030020 (0000ms, 1336ms total)
T1150 063:329 JLINK_ReadReg(R4)  returns 0x00000000 (0000ms, 1336ms total)
T1150 063:329 JLINK_ReadReg(R5)  returns 0x20000000 (0000ms, 1336ms total)
T1150 063:329 JLINK_ReadReg(R6)  returns 0x00000000 (0000ms, 1336ms total)
T1150 063:329 JLINK_ReadReg(R7)  returns 0x00000000 (0000ms, 1336ms total)
T1150 063:329 JLINK_ReadReg(R8)  returns 0x00000000 (0000ms, 1336ms total)
T1150 063:329 JLINK_ReadReg(R9)  returns 0x20000160 (0000ms, 1336ms total)
T1150 063:329 JLINK_ReadReg(R10)  returns 0x08000544 (0000ms, 1336ms total)
T1150 063:329 JLINK_ReadReg(R11)  returns 0x00000000 (0000ms, 1336ms total)
T1150 063:329 JLINK_ReadReg(R12)  returns 0x00000020 (0000ms, 1336ms total)
T1150 063:329 JLINK_ReadReg(R13)  returns 0x20000658 (0000ms, 1336ms total)
T1150 063:329 JLINK_ReadReg(R14)  returns 0x08000175 (0000ms, 1336ms total)
T1150 063:329 JLINK_ReadReg(R15)  returns 0x080004A2 (0000ms, 1336ms total)
T1150 063:329 JLINK_ReadReg(XPSR)  returns 0x41000000 (0000ms, 1336ms total)
T1150 063:330 JLINK_ReadReg(MSP)  returns 0x20000658 (0000ms, 1337ms total)
T1150 063:330 JLINK_ReadReg(PSP)  returns 0x20000800 (0000ms, 1337ms total)
T1150 063:330 JLINK_ReadReg(CFBP)  returns 0x00000000 (0000ms, 1337ms total)
T1150 063:330 JLINK_ReadMem (0x2000065C, 0x0004 Bytes, ...) -- CPU_ReadMem(64 bytes @ 0x20000640) -- Updating C cache (64 bytes @ 0x20000640) -- Read from C cache (4 bytes @ 0x2000065C) -- Data:  75 01 00 08  returns 0x00 (0001ms, 1337ms total)
T2384 063:332 JLINK_ReadMemU32(0xE0001004, 0x0001 Items, ...) -- CPU_ReadMem(4 bytes @ 0xE0001004) -- Data:  1E 00 00 00  returns 0x01 (0001ms, 1338ms total)
T1150 063:818 JLINK_Step() -- CPU_ReadMem(64 bytes @ 0x08000480) -- Updating C cache (64 bytes @ 0x08000480) -- Read from C cache (2 bytes @ 0x080004A2) -- Not simulated  returns 0x00 (0011ms, 1339ms total)
T1150 063:829 JLINK_ReadReg(R15)  returns 0x080004A4 (0001ms, 1350ms total)
T1150 063:830 JLINK_ReadReg(XPSR)  returns 0x41000000 (0000ms, 1351ms total)
T1150 063:830 JLINK_ReadReg(R0)  returns 0x00004C83 (0000ms, 1351ms total)
T1150 063:830 JLINK_ReadReg(R1)  returns 0xFEF6FFFF (0000ms, 1351ms total)
T1150 063:830 JLINK_ReadReg(R2)  returns 0x40010C00 (0000ms, 1351ms total)
T1150 063:830 JLINK_ReadReg(R3)  returns 0x10030020 (0000ms, 1351ms total)
T1150 063:830 JLINK_ReadReg(R4)  returns 0x00000000 (0000ms, 1351ms total)
T1150 063:830 JLINK_ReadReg(R5)  returns 0x20000000 (0000ms, 1351ms total)
T1150 063:830 JLINK_ReadReg(R6)  returns 0x00000000 (0000ms, 1351ms total)
T1150 063:830 JLINK_ReadReg(R7)  returns 0x00000000 (0000ms, 1351ms total)
T1150 063:830 JLINK_ReadReg(R8)  returns 0x00000000 (0001ms, 1351ms total)
T1150 063:831 JLINK_ReadReg(R9)  returns 0x20000160 (0000ms, 1352ms total)
T1150 063:831 JLINK_ReadReg(R10)  returns 0x08000544 (0000ms, 1352ms total)
T1150 063:831 JLINK_ReadReg(R11)  returns 0x00000000 (0000ms, 1352ms total)
T1150 063:831 JLINK_ReadReg(R12)  returns 0x00000020 (0000ms, 1352ms total)
T1150 063:831 JLINK_ReadReg(R13)  returns 0x20000658 (0000ms, 1352ms total)
T1150 063:831 JLINK_ReadReg(R14)  returns 0x08000175 (0000ms, 1352ms total)
T1150 063:831 JLINK_ReadReg(R15)  returns 0x080004A4 (0000ms, 1352ms total)
T1150 063:831 JLINK_ReadReg(XPSR)  returns 0x41000000 (0000ms, 1352ms total)
T1150 063:831 JLINK_ReadReg(MSP)  returns 0x20000658 (0000ms, 1352ms total)
T1150 063:831 JLINK_ReadReg(PSP)  returns 0x20000800 (0000ms, 1352ms total)
T1150 063:831 JLINK_ReadReg(CFBP)  returns 0x00000000 (0000ms, 1352ms total)
